 time           time           v(p)           v(s0)          v(s1)          v(w_mem)       v(n)          
 5.0000000e-10  5.0000000e-10  3.1415926e-04  4.7237839e-13  4.7401812e-13  5.0000000e-01  1.5865043e-06 
 5.4200000e-10  5.4200000e-10  3.4054864e-04  5.1539128e-13  5.1718032e-13  5.0000000e-01  1.7197707e-06 
 6.2600001e-10  6.2600001e-10  3.9332740e-04  6.0808327e-13  6.1019406e-13  5.0000000e-01  1.9863034e-06 
 7.9400002e-10  7.9400002e-10  4.9888492e-04  8.3346445e-13  8.3635759e-13  5.0000000e-01  2.5193688e-06 
 1.1300000e-09  1.1300000e-09  7.0999995e-04  1.4442157e-12  1.4492289e-12  5.0000000e-01  3.5854997e-06 
 1.8020001e-09  1.8020001e-09  1.1322300e-03  3.3056735e-12  3.3171482e-12  5.0000000e-01  5.7177614e-06 
 3.1460002e-09  3.1460002e-09  1.9766899e-03  9.5884081e-12  9.6216917e-12  5.0000000e-01  9.9822839e-06 
 5.8340003e-09  5.8340003e-09  3.6656085e-03  3.2393124e-11  3.2505568e-11  5.0000000e-01  1.8511323e-05 
 1.1210001e-08  1.1210001e-08  7.0434366e-03  1.1895912e-10  1.1937205e-10  5.0000000e-01  3.5569355e-05 
 2.1962001e-08  2.1962001e-08  1.3799023e-02  4.5591086e-10  4.5749343e-10  5.0000000e-01  6.9685066e-05 
 4.3466003e-08  4.3466003e-08  2.7309646e-02  1.7849925e-09  1.7911886e-09  5.0000000e-01  1.3791371e-04 
 5.0000000e-08  5.0000000e-08  3.1414635e-02  2.3618101e-09  2.3700084e-09  5.0000000e-01  1.5864391e-04 
 5.4300800e-08  5.4300800e-08  3.4116544e-02  2.8028917e-09  2.8126212e-09  5.0000000e-01  1.7228855e-04 
 6.2902401e-08  6.2902401e-08  3.9520172e-02  3.7548591e-09  3.7678931e-09  5.0000000e-01  1.9957687e-04 
 8.0105602e-08  8.0105602e-08  5.0326521e-02  6.0774687e-09  6.0985650e-09  5.0000000e-01  2.5414894e-04 
 1.1451200e-07  1.1451200e-07  7.1934495e-02  1.2395611e-08  1.2438639e-08  5.0000001e-01  3.6326921e-04 
 1.6451200e-07  1.6451200e-07  1.0331993e-01  2.5542701e-08  2.5631365e-08  5.0000002e-01  5.2176566e-04 
 2.1451200e-07  2.1451200e-07  1.3467987e-01  4.3361859e-08  4.3512378e-08  5.0000003e-01  6.8013338e-04 
 2.6451200e-07  2.6451200e-07  1.6600658e-01  6.5812373e-08  6.6040823e-08  5.0000004e-01  8.3833330e-04 
 3.1451200e-07  3.1451200e-07  1.9729233e-01  9.2845646e-08  9.3167934e-08  5.0000006e-01  9.9632640e-04 
 3.6451200e-07  3.6451200e-07  2.2852941e-01  1.2440387e-07  1.2483570e-07  5.0000008e-01  1.1540737e-03 
 4.1451200e-07  4.1451200e-07  2.5971009e-01  1.6042051e-07  1.6097737e-07  5.0000010e-01  1.3115362e-03 
 4.6451200e-07  4.6451200e-07  2.9082670e-01  2.0082093e-07  2.0151802e-07  5.0000013e-01  1.4686752e-03 
 5.1451200e-07  5.1451200e-07  3.2187155e-01  2.4552293e-07  2.4637519e-07  5.0000016e-01  1.6254518e-03 
 5.6451200e-07  5.6451200e-07  3.5283698e-01  2.9443747e-07  2.9545953e-07  5.0000019e-01  1.7818274e-03 
 6.1451200e-07  6.1451200e-07  3.8371536e-01  3.4746934e-07  3.4867549e-07  5.0000023e-01  1.9377634e-03 
 6.6451200e-07  6.6451200e-07  4.1449906e-01  4.0451789e-07  4.0592207e-07  5.0000026e-01  2.0932213e-03 
 7.1451200e-07  7.1451200e-07  4.4518048e-01  4.6547773e-07  4.6709351e-07  5.0000030e-01  2.2481628e-03 
 7.6451200e-07  7.6451200e-07  4.7575207e-01  5.3023948e-07  5.3208006e-07  5.0000034e-01  2.4025496e-03 
 8.1451200e-07  8.1451200e-07  5.0620627e-01  5.9869045e-07  6.0076864e-07  5.0000039e-01  2.5563436e-03 
 8.6451200e-07  8.6451200e-07  5.3653557e-01  6.7071541e-07  6.7304362e-07  5.0000044e-01  2.7095070e-03 
 9.1451200e-07  9.1451200e-07  5.6673250e-01  7.4619719e-07  7.4878741e-07  5.0000049e-01  2.8620018e-03 
 9.6451200e-07  9.6451200e-07  5.9678958e-01  8.2501737e-07  8.2788119e-07  5.0000054e-01  3.0137906e-03 
 1.0145120e-06  1.0145120e-06  6.2669942e-01  9.0705685e-07  9.1020545e-07  5.0000059e-01  3.1648357e-03 
 1.0645120e-06  1.0645120e-06  6.5645463e-01  9.9219648e-07  9.9564062e-07  5.0000065e-01  3.3151001e-03 
 1.1145120e-06  1.1145120e-06  6.8604787e-01  1.0803175e-06  1.0840675e-06  5.0000070e-01  3.4645465e-03 
 1.1645120e-06  1.1645120e-06  7.1547184e-01  1.1713022e-06  1.1753680e-06  5.0000076e-01  3.6131382e-03 
 1.2145120e-06  1.2145120e-06  7.4471928e-01  1.2650340e-06  1.2694252e-06  5.0000082e-01  3.7608384e-03 
 1.2645120e-06  1.2645120e-06  7.7378296e-01  1.3613982e-06  1.3661239e-06  5.0000089e-01  3.9076107e-03 
 1.3145120e-06  1.3145120e-06  8.0265573e-01  1.4602822e-06  1.4653511e-06  5.0000095e-01  4.0534190e-03 
 1.3645120e-06  1.3645120e-06  8.3133046e-01  1.5615757e-06  1.5669963e-06  5.0000102e-01  4.1982271e-03 
 1.4145120e-06  1.4145120e-06  8.5980006e-01  1.6651711e-06  1.6709513e-06  5.0000108e-01  4.3419995e-03 
 1.4645120e-06  1.4645120e-06  8.8805753e-01  1.7709637e-06  1.7771111e-06  5.0000115e-01  4.4847006e-03 
 1.5145120e-06  1.5145120e-06  9.1609588e-01  1.8788516e-06  1.8853735e-06  5.0000122e-01  4.6262952e-03 
 1.5645120e-06  1.5645120e-06  9.4390819e-01  1.9887363e-06  1.9956397e-06  5.0000129e-01  4.7667484e-03 
 1.6145120e-06  1.6145120e-06  9.7148761e-01  2.1005225e-06  2.1078138e-06  5.0000137e-01  4.9060256e-03 
 1.6645120e-06  1.6645120e-06  9.9882733e-01  2.2141180e-06  2.2218037e-06  5.0000144e-01  5.0440923e-03 
 1.7145120e-06  1.7145120e-06  1.0259206e+00  2.3294343e-06  2.3375203e-06  5.0000152e-01  5.1809144e-03 
 1.7645120e-06  1.7645120e-06  1.0527608e+00  2.4463862e-06  2.4548782e-06  5.0000159e-01  5.3164584e-03 
 1.8145120e-06  1.8145120e-06  1.0793411e+00  2.5648919e-06  2.5737952e-06  5.0000167e-01  5.4506906e-03 
 1.8645120e-06  1.8645120e-06  1.1056552e+00  2.6848728e-06  2.6941926e-06  5.0000175e-01  5.5835780e-03 
 1.9145120e-06  1.9145120e-06  1.1316965e+00  2.8062538e-06  2.8159950e-06  5.0000183e-01  5.7150878e-03 
 1.9645120e-06  1.9645120e-06  1.1574585e+00  2.9289633e-06  2.9391303e-06  5.0000191e-01  5.8451875e-03 
 2.0145120e-06  2.0145120e-06  1.1829350e+00  3.0529324e-06  3.0635298e-06  5.0000199e-01  5.9738450e-03 
 2.0645120e-06  2.0645120e-06  1.2081196e+00  3.1780959e-06  3.1891278e-06  5.0000207e-01  6.1010287e-03 
 2.1145120e-06  2.1145120e-06  1.2330061e+00  3.3043913e-06  3.3158616e-06  5.0000215e-01  6.2267070e-03 
 2.1645120e-06  2.1645120e-06  1.2575884e+00  3.4317592e-06  3.4436716e-06  5.0000223e-01  6.3508491e-03 
 2.2145120e-06  2.2145120e-06  1.2818604e+00  3.5601430e-06  3.5725010e-06  5.0000232e-01  6.4734242e-03 
 2.2645120e-06  2.2645120e-06  1.3058161e+00  3.6894890e-06  3.7022961e-06  5.0000240e-01  6.5944022e-03 
 2.3145120e-06  2.3145120e-06  1.3294496e+00  3.8197462e-06  3.8330054e-06  5.0000248e-01  6.7137531e-03 
 2.3645120e-06  2.3645120e-06  1.3527551e+00  3.9508660e-06  3.9645803e-06  5.0000257e-01  6.8314476e-03 
 2.4145120e-06  2.4145120e-06  1.3757268e+00  4.0828024e-06  4.0969747e-06  5.0000266e-01  6.9474566e-03 
 2.4645120e-06  2.4645120e-06  1.3983591e+00  4.2155116e-06  4.2301446e-06  5.0000274e-01  7.0617514e-03 
 2.5145120e-06  2.5145120e-06  1.4206464e+00  4.3489524e-06  4.3640486e-06  5.0000283e-01  7.1743039e-03 
 2.5645120e-06  2.5645120e-06  1.4425831e+00  4.4830854e-06  4.4986472e-06  5.0000292e-01  7.2850862e-03 
 2.6145120e-06  2.6145120e-06  1.4641639e+00  4.6178734e-06  4.6339030e-06  5.0000300e-01  7.3940712e-03 
 2.6645120e-06  2.6645120e-06  1.4853834e+00  4.7532812e-06  4.7697809e-06  5.0000309e-01  7.5012318e-03 
 2.7145120e-06  2.7145120e-06  1.5062365e+00  4.8892754e-06  4.9062471e-06  5.0000318e-01  7.6065416e-03 
 2.7645120e-06  2.7645120e-06  1.5267179e+00  5.0258244e-06  5.0432701e-06  5.0000327e-01  7.7099747e-03 
 2.8145120e-06  2.8145120e-06  1.5468226e+00  5.1628982e-06  5.1808197e-06  5.0000336e-01  7.8115055e-03 
 2.8645120e-06  2.8645120e-06  1.5665456e+00  5.3004685e-06  5.3188676e-06  5.0000345e-01  7.9111089e-03 
 2.9145120e-06  2.9145120e-06  1.5858822e+00  5.4385085e-06  5.4573868e-06  5.0000354e-01  8.0087605e-03 
 2.9645120e-06  2.9645120e-06  1.6048274e+00  5.5769928e-06  5.5963518e-06  5.0000363e-01  8.1044360e-03 
 3.0145120e-06  3.0145120e-06  1.6233767e+00  5.7158973e-06  5.7357384e-06  5.0000372e-01  8.1981120e-03 
 3.0645120e-06  3.0645120e-06  1.6415254e+00  5.8551992e-06  5.8755239e-06  5.0000381e-01  8.2897652e-03 
 3.1145120e-06  3.1145120e-06  1.6592691e+00  5.9948770e-06  6.0156865e-06  5.0000390e-01  8.3793730e-03 
 3.1645120e-06  3.1645120e-06  1.6766034e+00  6.1349102e-06  6.1562058e-06  5.0000399e-01  8.4669135e-03 
 3.2145120e-06  3.2145120e-06  1.6935240e+00  6.2752794e-06  6.2970623e-06  5.0000408e-01  8.5523648e-03 
 3.2645120e-06  3.2645120e-06  1.7100268e+00  6.4159664e-06  6.4382376e-06  5.0000417e-01  8.6357061e-03 
 3.3145120e-06  3.3145120e-06  1.7261077e+00  6.5569536e-06  6.5797142e-06  5.0000427e-01  8.7169166e-03 
 3.3645120e-06  3.3645120e-06  1.7417626e+00  6.6982246e-06  6.7214756e-06  5.0000436e-01  8.7959764e-03 
 3.4145120e-06  3.4145120e-06  1.7569878e+00  6.8397638e-06  6.8635061e-06  5.0000445e-01  8.8728660e-03 
 3.4645120e-06  3.4645120e-06  1.7717795e+00  6.9815562e-06  7.0057907e-06  5.0000454e-01  8.9475663e-03 
 3.5145120e-06  3.5145120e-06  1.7861341e+00  7.1235878e-06  7.1483153e-06  5.0000463e-01  9.0200590e-03 
 3.5645120e-06  3.5645120e-06  1.8000479e+00  7.2658452e-06  7.2910665e-06  5.0000473e-01  9.0903262e-03 
 3.6145120e-06  3.6145120e-06  1.8135176e+00  7.4083156e-06  7.4340315e-06  5.0000482e-01  9.1583504e-03 
 3.6645120e-06  3.6645120e-06  1.8265399e+00  7.5509869e-06  7.5771980e-06  5.0000491e-01  9.2241151e-03 
 3.7145120e-06  3.7145120e-06  1.8391114e+00  7.6938475e-06  7.7205545e-06  5.0000501e-01  9.2876038e-03 
 3.7645120e-06  3.7645120e-06  1.8512292e+00  7.8368864e-06  7.8640899e-06  5.0000510e-01  9.3488010e-03 
 3.8145120e-06  3.8145120e-06  1.8628903e+00  7.9800932e-06  8.0077938e-06  5.0000519e-01  9.4076915e-03 
 3.8645120e-06  3.8645120e-06  1.8740916e+00  8.1234579e-06  8.1516561e-06  5.0000528e-01  9.4642609e-03 
 3.9145120e-06  3.9145120e-06  1.8848306e+00  8.2669707e-06  8.2956671e-06  5.0000538e-01  9.5184951e-03 
 3.9645120e-06  3.9645120e-06  1.8951046e+00  8.4106227e-06  8.4398178e-06  5.0000547e-01  9.5703807e-03 
 4.0145120e-06  4.0145120e-06  1.9049109e+00  8.5544051e-06  8.5840992e-06  5.0000556e-01  9.6199051e-03 
 4.0645120e-06  4.0645120e-06  1.9142473e+00  8.6983094e-06  8.7285031e-06  5.0000566e-01  9.6670559e-03 
 4.1145120e-06  4.1145120e-06  1.9231113e+00  8.8423276e-06  8.8730212e-06  5.0000575e-01  9.7118215e-03 
 4.1645120e-06  4.1645120e-06  1.9315008e+00  8.9864520e-06  9.0176459e-06  5.0000585e-01  9.7541909e-03 
 4.2145120e-06  4.2145120e-06  1.9394138e+00  9.1306751e-06  9.1623696e-06  5.0000594e-01  9.7941536e-03 
 4.2645120e-06  4.2645120e-06  1.9468482e+00  9.2749897e-06  9.3071851e-06  5.0000603e-01  9.8316998e-03 
 4.3145120e-06  4.3145120e-06  1.9538023e+00  9.4193889e-06  9.4520856e-06  5.0000613e-01  9.8668201e-03 
 4.3645120e-06  4.3645120e-06  1.9602743e+00  9.5638659e-06  9.5970641e-06  5.0000622e-01  9.8995060e-03 
 4.4145120e-06  4.4145120e-06  1.9662627e+00  9.7084144e-06  9.7421143e-06  5.0000632e-01  9.9297493e-03 
 4.4645120e-06  4.4645120e-06  1.9717658e+00  9.8530279e-06  9.8872299e-06  5.0000641e-01  9.9575426e-03 
 4.5145120e-06  4.5145120e-06  1.9767825e+00  9.9977004e-06  1.0032405e-05  5.0000650e-01  9.9828791e-03 
 4.5645120e-06  4.5645120e-06  1.9813115e+00  1.0142426e-05  1.0177632e-05  5.0000660e-01  1.0005752e-02 
 4.6145120e-06  4.6145120e-06  1.9853516e+00  1.0287198e-05  1.0322907e-05  5.0000669e-01  1.0026157e-02 
 4.6645120e-06  4.6645120e-06  1.9889018e+00  1.0432012e-05  1.0468224e-05  5.0000679e-01  1.0044088e-02 
 4.7145120e-06  4.7145120e-06  1.9919613e+00  1.0576862e-05  1.0613577e-05  5.0000688e-01  1.0059540e-02 
 4.7645120e-06  4.7645120e-06  1.9945293e+00  1.0721742e-05  1.0758960e-05  5.0000697e-01  1.0072511e-02 
 4.8145120e-06  4.8145120e-06  1.9966052e+00  1.0866648e-05  1.0904368e-05  5.0000707e-01  1.0082996e-02 
 4.8645120e-06  4.8645120e-06  1.9981885e+00  1.1011572e-05  1.1049796e-05  5.0000716e-01  1.0090994e-02 
 4.9145120e-06  4.9145120e-06  1.9992788e+00  1.1156511e-05  1.1195237e-05  5.0000726e-01  1.0096501e-02 
 4.9645120e-06  4.9645120e-06  1.9998757e+00  1.1301459e-05  1.1340688e-05  5.0000735e-01  1.0099518e-02 
 5.0145120e-06  5.0145120e-06  1.9999792e+00  1.1446410e-05  1.1486143e-05  5.0000745e-01  1.0100042e-02 
 5.0645120e-06  5.0645120e-06  1.9995893e+00  1.1591360e-05  1.1631596e-05  5.0000754e-01  1.0098075e-02 
 5.1145120e-06  5.1145120e-06  1.9987059e+00  1.1736303e-05  1.1777042e-05  5.0000763e-01  1.0093616e-02 
 5.1645120e-06  5.1645120e-06  1.9973295e+00  1.1881234e-05  1.1922476e-05  5.0000773e-01  1.0086667e-02 
 5.2145120e-06  5.2145120e-06  1.9954602e+00  1.2026148e-05  1.2067893e-05  5.0000782e-01  1.0077228e-02 
 5.2645120e-06  5.2645120e-06  1.9930985e+00  1.2171039e-05  1.2213287e-05  5.0000792e-01  1.0065304e-02 
 5.3145120e-06  5.3145120e-06  1.9902451e+00  1.2315902e-05  1.2358653e-05  5.0000801e-01  1.0050896e-02 
 5.3645120e-06  5.3645120e-06  1.9869007e+00  1.2460731e-05  1.2503985e-05  5.0000811e-01  1.0034008e-02 
 5.4145120e-06  5.4145120e-06  1.9830660e+00  1.2605522e-05  1.2649278e-05  5.0000820e-01  1.0014644e-02 
 5.4645120e-06  5.4645120e-06  1.9787420e+00  1.2750267e-05  1.2794526e-05  5.0000829e-01  9.9928095e-03 
 5.5145120e-06  5.5145120e-06  1.9739298e+00  1.2894962e-05  1.2939723e-05  5.0000839e-01  9.9685092e-03 
 5.5645120e-06  5.5645120e-06  1.9686305e+00  1.3039601e-05  1.3084864e-05  5.0000848e-01  9.9417494e-03 
 5.6145120e-06  5.6145120e-06  1.9628455e+00  1.3184177e-05  1.3229942e-05  5.0000858e-01  9.9125365e-03 
 5.6645120e-06  5.6645120e-06  1.9565762e+00  1.3328684e-05  1.3374950e-05  5.0000867e-01  9.8808779e-03 
 5.7145120e-06  5.7145120e-06  1.9498242e+00  1.3473116e-05  1.3519884e-05  5.0000876e-01  9.8467813e-03 
 5.7645120e-06  5.7645120e-06  1.9425910e+00  1.3617466e-05  1.3664735e-05  5.0000886e-01  9.8102551e-03 
 5.8145120e-06  5.8145120e-06  1.9348786e+00  1.3761728e-05  1.3809497e-05  5.0000895e-01  9.7713084e-03 
 5.8645120e-06  5.8645120e-06  1.9266888e+00  1.3905894e-05  1.3954164e-05  5.0000905e-01  9.7299508e-03 
 5.9145120e-06  5.9145120e-06  1.9180235e+00  1.4049956e-05  1.4098727e-05  5.0000914e-01  9.6861924e-03 
 5.9645120e-06  5.9645120e-06  1.9088851e+00  1.4193909e-05  1.4243179e-05  5.0000923e-01  9.6400441e-03 
 6.0145120e-06  6.0145120e-06  1.8992756e+00  1.4337742e-05  1.4387511e-05  5.0000933e-01  9.5915172e-03 
 6.0645120e-06  6.0645120e-06  1.8891975e+00  1.4481449e-05  1.4531717e-05  5.0000942e-01  9.5406237e-03 
 6.1145120e-06  6.1145120e-06  1.8786533e+00  1.4625020e-05  1.4675787e-05  5.0000951e-01  9.4873762e-03 
 6.1645120e-06  6.1645120e-06  1.8676456e+00  1.4768447e-05  1.4819711e-05  5.0000961e-01  9.4317879e-03 
 6.2145120e-06  6.2145120e-06  1.8561770e+00  1.4911720e-05  1.4963482e-05  5.0000970e-01  9.3738723e-03 
 6.2645120e-06  6.2645120e-06  1.8442505e+00  1.5054830e-05  1.5107088e-05  5.0000979e-01  9.3136439e-03 
 6.3145120e-06  6.3145120e-06  1.8318689e+00  1.5197765e-05  1.5250520e-05  5.0000989e-01  9.2511174e-03 
 6.3645120e-06  6.3645120e-06  1.8190354e+00  1.5340516e-05  1.5393766e-05  5.0000998e-01  9.1863083e-03 
 6.4145120e-06  6.4145120e-06  1.8057530e+00  1.5483071e-05  1.5536816e-05  5.0001007e-01  9.1192327e-03 
 6.4645120e-06  6.4645120e-06  1.7920251e+00  1.5625418e-05  1.5679657e-05  5.0001016e-01  9.0499069e-03 
 6.5145120e-06  6.5145120e-06  1.7778550e+00  1.5767544e-05  1.5822276e-05  5.0001026e-01  8.9783482e-03 
 6.5645120e-06  6.5645120e-06  1.7632462e+00  1.5909437e-05  1.5964662e-05  5.0001035e-01  8.9045742e-03 
 6.6145120e-06  6.6145120e-06  1.7482025e+00  1.6051083e-05  1.6106799e-05  5.0001044e-01  8.8286031e-03 
 6.6645120e-06  6.6645120e-06  1.7327273e+00  1.6192466e-05  1.6248674e-05  5.0001053e-01  8.7504537e-03 
 6.7145120e-06  6.7145120e-06  1.7168247e+00  1.6333573e-05  1.6390270e-05  5.0001063e-01  8.6701451e-03 
 6.7645120e-06  6.7645120e-06  1.7004984e+00  1.6474386e-05  1.6531572e-05  5.0001072e-01  8.5876973e-03 
 6.8145120e-06  6.8145120e-06  1.6837526e+00  1.6614889e-05  1.6672563e-05  5.0001081e-01  8.5031306e-03 
 6.8645120e-06  6.8645120e-06  1.6665913e+00  1.6755064e-05  1.6813224e-05  5.0001090e-01  8.4164659e-03 
 6.9145120e-06  6.9145120e-06  1.6490188e+00  1.6894891e-05  1.6953537e-05  5.0001099e-01  8.3277244e-03 
 6.9645120e-06  6.9645120e-06  1.6310395e+00  1.7034351e-05  1.7093481e-05  5.0001108e-01  8.2369282e-03 
 7.0145120e-06  7.0145120e-06  1.6126577e+00  1.7173423e-05  1.7233036e-05  5.0001117e-01  8.1440996e-03 
 7.0645120e-06  7.0645120e-06  1.5938780e+00  1.7312084e-05  1.7372178e-05  5.0001126e-01  8.0492616e-03 
 7.1145120e-06  7.1145120e-06  1.5747050e+00  1.7450312e-05  1.7510885e-05  5.0001135e-01  7.9524374e-03 
 7.1645120e-06  7.1645120e-06  1.5551435e+00  1.7588080e-05  1.7649132e-05  5.0001144e-01  7.8536511e-03 
 7.2145120e-06  7.2145120e-06  1.5351984e+00  1.7725363e-05  1.7786891e-05  5.0001153e-01  7.7529270e-03 
 7.2645120e-06  7.2645120e-06  1.5148744e+00  1.7862134e-05  1.7924137e-05  5.0001162e-01  7.6502899e-03 
 7.3145120e-06  7.3145120e-06  1.4941766e+00  1.7998362e-05  1.8060838e-05  5.0001171e-01  7.5457651e-03 
 7.3645120e-06  7.3645120e-06  1.4731102e+00  1.8134017e-05  1.8196964e-05  5.0001180e-01  7.4393786e-03 
 7.4145120e-06  7.4145120e-06  1.4516803e+00  1.8269067e-05  1.8332482e-05  5.0001188e-01  7.3311564e-03 
 7.4645120e-06  7.4645120e-06  1.4298922e+00  1.8403476e-05  1.8467358e-05  5.0001197e-01  7.2211253e-03 
 7.5145120e-06  7.5145120e-06  1.4077514e+00  1.8537209e-05  1.8601556e-05  5.0001206e-01  7.1093125e-03 
 7.5645120e-06  7.5645120e-06  1.3852632e+00  1.8670227e-05  1.8735035e-05  5.0001215e-01  6.9957455e-03 
 7.6145120e-06  7.6145120e-06  1.3624332e+00  1.8802490e-05  1.8867758e-05  5.0001223e-01  6.8804524e-03 
 7.6645120e-06  7.6645120e-06  1.3392670e+00  1.8933955e-05  1.8999679e-05  5.0001232e-01  6.7634616e-03 
 7.7145120e-06  7.7145120e-06  1.3157704e+00  1.9064577e-05  1.9130754e-05  5.0001240e-01  6.6448020e-03 
 7.7645120e-06  7.7645120e-06  1.2919491e+00  1.9194308e-05  1.9260935e-05  5.0001249e-01  6.5245028e-03 
 7.8145120e-06  7.8145120e-06  1.2678091e+00  1.9323099e-05  1.9390173e-05  5.0001257e-01  6.4025937e-03 
 7.8645120e-06  7.8645120e-06  1.2433563e+00  1.9450897e-05  1.9518414e-05  5.0001265e-01  6.2791048e-03 
 7.9145120e-06  7.9145120e-06  1.2185966e+00  1.9577646e-05  1.9645604e-05  5.0001274e-01  6.1540667e-03 
 7.9645120e-06  7.9645120e-06  1.1935363e+00  1.9703288e-05  1.9771682e-05  5.0001282e-01  6.0275100e-03 
 8.0145120e-06  8.0145120e-06  1.1681816e+00  1.9827763e-05  1.9896589e-05  5.0001290e-01  5.8994661e-03 
 8.0645120e-06  8.0645120e-06  1.1425386e+00  1.9951005e-05  2.0020259e-05  5.0001298e-01  5.7699665e-03 
 8.1145120e-06  8.1145120e-06  1.1166136e+00  2.0072949e-05  2.0142626e-05  5.0001306e-01  5.6390433e-03 
 8.1645120e-06  8.1645120e-06  1.0904132e+00  2.0193523e-05  2.0263618e-05  5.0001314e-01  5.5067286e-03 
 8.2145120e-06  8.2145120e-06  1.0639438e+00  2.0312653e-05  2.0383162e-05  5.0001321e-01  5.3730552e-03 
 8.2645120e-06  8.2645120e-06  1.0372118e+00  2.0430263e-05  2.0501180e-05  5.0001329e-01  5.2380560e-03 
 8.3145120e-06  8.3145120e-06  1.0102239e+00  2.0546272e-05  2.0617592e-05  5.0001337e-01  5.1017644e-03 
 8.3645120e-06  8.3645120e-06  9.8298674e-01  2.0660597e-05  2.0732314e-05  5.0001344e-01  4.9642139e-03 
 8.4145120e-06  8.4145120e-06  9.5550706e-01  2.0773149e-05  2.0845257e-05  5.0001351e-01  4.8254385e-03 
 8.4645120e-06  8.4645120e-06  9.2779161e-01  2.0883840e-05  2.0956332e-05  5.0001359e-01  4.6854724e-03 
 8.5145120e-06  8.5145120e-06  8.9984725e-01  2.0992574e-05  2.1065443e-05  5.0001366e-01  4.5443503e-03 
 8.5645120e-06  8.5645120e-06  8.7168086e-01  2.1099254e-05  2.1172494e-05  5.0001373e-01  4.4021068e-03 
